time	V(compout)	V(input)
0.000000000000000e+00	1.417064e-01	2.779785e-04
2.580300000000000e-09	1.417064e-01	2.779785e-04
2.580390000000000e-09	1.417064e-01	-1.015331e-03
2.580570000000000e-09	1.417064e-01	-6.485258e-03
2.580930000000000e-09	1.417064e-01	-2.666253e-02
2.581200000000000e-09	1.417064e-01	-4.820863e-02
2.581272000000000e-09	1.417064e-01	-5.570323e-02
2.581416000000000e-09	1.417064e-01	-7.038751e-02
2.581704000000000e-09	1.417064e-01	-9.828287e-02
2.582280000000000e-09	1.417064e-01	-1.482008e-01
2.583432000000000e-09	1.417064e-01	-2.257338e-01
2.585735999999999e-09	1.417064e-01	-3.143081e-01
2.588600000000000e-09	1.417064e-01	-3.520431e-01
2.590100000000000e-09	1.417064e-01	-3.273920e-01
2.590120000000000e-09	1.417064e-01	-3.274196e-01
2.590160000000000e-09	1.417064e-01	-3.282471e-01
2.590240000000000e-09	1.417064e-01	-3.323875e-01
2.590300000000000e-09	1.417064e-01	-3.372261e-01
2.590412000000000e-09	1.417064e-01	-3.485938e-01
2.590540000000000e-09	1.417064e-01	-3.587834e-01
2.590796000000000e-09	1.417064e-01	-3.712131e-01
2.591200000000000e-09	1.417064e-01	-3.792877e-01
2.592057142857143e-09	1.417064e-01	-3.642700e-01
2.592914285714286e-09	1.417064e-01	-3.497473e-01
2.593771428571429e-09	1.417064e-01	-3.357194e-01
2.594628571428571e-09	1.417064e-01	-3.221864e-01
2.595485714285714e-09	1.417064e-01	-3.091483e-01
2.596342857142857e-09	1.417064e-01	-2.966051e-01
2.597200000000000e-09	1.417064e-01	-2.845567e-01
2.597340000000000e-09	1.417064e-01	-2.843074e-01
2.597620000000000e-09	1.417064e-01	-2.874398e-01
2.598180000000000e-09	1.417064e-01	-3.053017e-01
2.598600000000000e-09	1.417064e-01	-3.267238e-01
2.598712000000000e-09	1.417064e-01	-3.365885e-01
2.598936000000000e-09	1.417064e-01	-3.603281e-01
2.599384000000000e-09	1.417064e-01	-4.250187e-01
2.600100000000000e-09	1.417064e-01	-5.542885e-01
2.600160000000000e-09	1.417064e-01	-5.644225e-01
2.600240000000000e-09	1.417064e-01	-5.719464e-01
2.600300000000000e-09	1.417064e-01	-5.741301e-01
2.601042857142857e-09	1.417064e-01	-5.543977e-01
2.601785714285715e-09	1.417064e-01	-5.352489e-01
2.602528571428572e-09	1.417064e-01	-5.166835e-01
2.603271428571429e-09	1.417064e-01	-4.987017e-01
2.604014285714286e-09	1.417064e-01	-4.813033e-01
2.604757142857143e-09	1.417064e-01	-4.644885e-01
2.605500000000000e-09	1.417064e-01	-4.482571e-01
2.605570000000000e-09	1.417064e-01	-4.483669e-01
2.605710000000000e-09	1.417064e-01	-4.521342e-01
2.605990000000000e-09	1.417064e-01	-4.710491e-01
2.606200000000000e-09	1.417064e-01	-4.931466e-01
2.606368000000000e-09	1.417064e-01	-5.114707e-01
2.606592000000000e-09	1.417064e-01	-5.247592e-01
2.606800000000000e-09	1.417064e-01	-5.290158e-01
2.606920000000000e-09	1.417064e-01	-5.288720e-01
2.607080000000000e-09	1.417064e-01	-5.334223e-01
2.607200000000000e-09	1.417064e-01	-5.395705e-01
2.607424000000000e-09	1.417064e-01	-5.541316e-01
2.607680000000000e-09	1.417064e-01	-5.650629e-01
2.608192000000000e-09	1.417064e-01	-5.745673e-01
2.608600000000000e-09	1.417064e-01	-5.733410e-01
2.610800000000000e-09	1.417064e-01	-5.169793e-01
2.610920000000000e-09	1.417064e-01	-5.162691e-01
2.611080000000000e-09	1.417064e-01	-5.189633e-01
2.611200000000000e-09	1.417064e-01	-5.230843e-01
2.611814285714286e-09	1.417064e-01	-5.539600e-01
2.612428571428571e-09	1.417064e-01	-5.831829e-01
2.613042857142857e-09	1.417064e-01	-6.107531e-01
2.613657142857143e-09	1.417064e-01	-6.366706e-01
2.614271428571429e-09	1.417064e-01	-6.609354e-01
2.614885714285714e-09	1.417064e-01	-6.835474e-01
2.615500000000000e-09	1.417064e-01	-7.045068e-01
2.615710000000000e-09	1.417064e-01	-7.079063e-01
2.615990000000000e-09	1.417065e-01	-7.071695e-01
2.616200000000000e-09	1.417065e-01	-7.035840e-01
2.616256000000000e-09	1.417065e-01	-7.031326e-01
2.616368000000000e-09	1.417065e-01	-7.053568e-01
2.616592000000001e-09	1.417065e-01	-7.205803e-01
2.616800000000000e-09	1.417065e-01	-7.440441e-01
2.616920000000000e-09	1.417065e-01	-7.582058e-01
2.617080000000000e-09	1.417065e-01	-7.676745e-01
2.617200000000000e-09	1.417065e-01	-7.693460e-01
2.617557142857143e-09	1.417065e-01	-7.566563e-01
2.617914285714286e-09	1.417065e-01	-7.441534e-01
2.618271428571429e-09	1.417065e-01	-7.318374e-01
2.618628571428571e-09	1.417065e-01	-7.197082e-01
2.618985714285714e-09	1.417065e-01	-7.077658e-01
2.619342857142857e-09	1.417065e-01	-6.960102e-01
2.619700000000000e-09	1.417065e-01	-6.844414e-01
2.619810000000000e-09	1.417065e-01	-6.827176e-01
2.620030000000000e-09	1.417065e-01	-6.832253e-01
2.620470000000000e-09	1.417065e-01	-6.968975e-01
2.620800000000000e-09	1.417065e-01	-7.159274e-01
2.620920000000000e-09	1.417065e-01	-7.229603e-01
2.621080000000000e-09	1.417065e-01	-7.266971e-01
2.621200000000000e-09	1.417065e-01	-7.262461e-01
2.621780571428572e-09	1.417065e-01	-7.070567e-01
2.622361142857143e-09	1.417065e-01	-6.884842e-01
2.622941714285715e-09	1.417065e-01	-6.705286e-01
2.623522285714286e-09	1.417065e-01	-6.531898e-01
2.624102857142858e-09	1.417065e-01	-6.364679e-01
2.624683428571430e-09	1.417065e-01	-6.203629e-01
2.625264000000001e-09	1.417065e-01	-6.048747e-01
2.629100000000000e-09	1.417065e-01	-5.063651e-01
2.629160000000000e-09	1.417065e-01	-5.059465e-01
2.629280000000000e-09	1.417065e-01	-5.071973e-01
2.629520000000000e-09	1.417065e-01	-5.164018e-01
2.629700000000000e-09	1.417065e-01	-5.279676e-01
2.629844000000000e-09	1.417065e-01	-5.389350e-01
2.630036000000000e-09	1.417065e-01	-5.478789e-01
2.630420000000000e-09	1.417065e-01	-5.551502e-01
2.630500000000000e-09	1.417065e-01	-5.547463e-01
2.630800000000000e-09	1.417065e-01	-5.473503e-01
2.631016000000000e-09	1.417065e-01	-5.425134e-01
2.631232000000000e-09	1.417065e-01	-5.381975e-01
2.631448000000000e-09	1.417065e-01	-5.344024e-01
2.631664000000000e-09	1.417065e-01	-5.311282e-01
2.631880000000001e-09	1.417065e-01	-5.283749e-01
2.632096000000000e-09	1.417065e-01	-5.261424e-01
2.632312000000001e-09	1.417065e-01	-5.244308e-01
2.633100000000000e-09	1.417065e-01	-5.196361e-01
2.633250000000000e-09	1.417065e-01	-5.188297e-01
2.633600000000000e-09	1.417065e-01	-5.138719e-01
2.633810000000000e-09	1.417065e-01	-5.112010e-01
2.633900000000000e-09	1.417065e-01	-5.108389e-01
2.634068000000000e-09	1.417065e-01	-5.109794e-01
2.634260000000000e-09	1.417065e-01	-5.106416e-01
2.634644000000000e-09	1.417065e-01	-5.083864e-01
2.635412000000001e-09	1.417065e-01	-4.997074e-01
2.636000000000000e-09	1.417065e-01	-4.902268e-01
2.636090000000000e-09	1.417065e-01	-4.896945e-01
2.636210000000000e-09	1.417065e-01	-4.913029e-01
2.636300000000000e-09	1.417065e-01	-4.938475e-01
2.636468000000000e-09	1.417065e-01	-4.995328e-01
2.636660000000000e-09	1.417065e-01	-5.021421e-01
2.637000000000000e-09	1.417065e-01	-5.016894e-01
2.637800000000000e-09	1.417065e-01	-4.844920e-01
2.637820000000000e-09	1.417065e-01	-4.843783e-01
2.637860000000000e-09	1.417065e-01	-4.848413e-01
2.637940000000000e-09	1.417065e-01	-4.879892e-01
2.638000000000000e-09	1.417065e-01	-4.918998e-01
2.638157142857143e-09	1.417065e-01	-5.083707e-01
2.638314285714286e-09	1.417065e-01	-5.262552e-01
2.638471428571429e-09	1.417065e-01	-5.455533e-01
2.638628571428572e-09	1.417065e-01	-5.662649e-01
2.638785714285714e-09	1.417065e-01	-5.883900e-01
2.638942857142857e-09	1.417065e-01	-6.119287e-01
2.639100000000000e-09	1.417065e-01	-6.368809e-01
2.639160000000000e-09	1.417065e-01	-6.454163e-01
2.639280000000000e-09	1.417065e-01	-6.588760e-01
2.639520000000000e-09	1.417065e-01	-6.742048e-01
2.639700000000000e-09	1.417065e-01	-6.776389e-01
2.639844000000000e-09	1.417065e-01	-6.753649e-01
2.640036000000000e-09	1.417065e-01	-6.773043e-01
2.640420000000000e-09	1.417065e-01	-6.904768e-01
2.640500000000000e-09	1.417065e-01	-6.949008e-01
2.640730400000000e-09	1.417065e-01	-7.097898e-01
2.641037600000000e-09	1.417065e-01	-7.253166e-01
2.641652000000000e-09	1.417065e-01	-7.412422e-01
2.642880799999999e-09	1.417066e-01	-7.437229e-01
2.643000000000000e-09	1.417066e-01	-7.415406e-01
2.643100000000000e-09	1.417066e-01	-7.382147e-01
2.643156000000000e-09	1.417066e-01	-7.371506e-01
2.643220000000000e-09	1.417066e-01	-7.377152e-01
2.643348000000000e-09	1.417066e-01	-7.445138e-01
2.643600000000000e-09	1.417066e-01	-7.682801e-01
2.643676800000000e-09	1.417066e-01	-7.771193e-01
2.643779200000000e-09	1.417066e-01	-7.833960e-01
2.643900000000000e-09	1.417066e-01	-7.856078e-01
2.643990697142857e-09	1.417066e-01	-7.826493e-01
2.644081394285714e-09	1.417066e-01	-7.801281e-01
2.644172091428572e-09	1.417066e-01	-7.780443e-01
2.644262788571428e-09	1.417066e-01	-7.763978e-01
2.644353485714286e-09	1.417066e-01	-7.751887e-01
2.644444182857143e-09	1.417066e-01	-7.744170e-01
2.644534880000000e-09	1.417066e-01	-7.740827e-01
2.645190240000000e-09	1.417066e-01	-7.808823e-01
2.646000000000000e-09	1.417066e-01	-8.041989e-01
2.646090000000000e-09	1.417066e-01	-8.070019e-01
2.646210000000001e-09	1.417066e-01	-8.076541e-01
2.646300000000000e-09	1.417066e-01	-8.063622e-01
2.646468000000000e-09	1.417066e-01	-8.026734e-01
2.646660000000000e-09	1.417066e-01	-8.035634e-01
2.647000000000000e-09	1.417066e-01	-8.118011e-01
2.647268800000000e-09	1.417066e-01	-8.287104e-01
2.647800000000000e-09	1.417066e-01	-8.732963e-01
2.647940000000000e-09	1.417066e-01	-8.796262e-01
2.648000000000000e-09	1.417066e-01	-8.793631e-01
2.648357142857143e-09	1.417066e-01	-8.654207e-01
2.648714285714286e-09	1.417066e-01	-8.516847e-01
2.649071428571429e-09	1.417066e-01	-8.381552e-01
2.649428571428571e-09	1.417066e-01	-8.248321e-01
2.649785714285714e-09	1.417066e-01	-8.117155e-01
2.650142857142857e-09	1.417066e-01	-7.988053e-01
2.650500000000000e-09	1.417066e-01	-7.861016e-01
2.651114400000000e-09	1.417066e-01	-7.714373e-01
2.651933600000000e-09	1.417066e-01	-7.650030e-01
2.653000000000000e-09	1.417066e-01	-7.701747e-01
2.653060000000000e-09	1.417066e-01	-7.709837e-01
2.653180000000000e-09	1.417066e-01	-7.716137e-01
2.653420000000000e-09	1.417066e-01	-7.697020e-01
2.653600000000000e-09	1.417066e-01	-7.660621e-01
2.654470857142857e-09	1.417066e-01	-7.377400e-01
2.655341714285714e-09	1.417066e-01	-7.105959e-01
2.656212571428571e-09	1.417067e-01	-6.846299e-01
2.657083428571427e-09	1.417067e-01	-6.598421e-01
2.657954285714284e-09	1.417067e-01	-6.362323e-01
2.658825142857141e-09	1.417067e-01	-6.138005e-01
2.659695999999998e-09	1.417067e-01	-5.925469e-01
2.663400000000000e-09	1.417067e-01	-5.053039e-01
2.663730000000000e-09	1.417067e-01	-5.008203e-01
2.664170000000000e-09	1.417067e-01	-4.985754e-01
2.664500000000000e-09	1.417067e-01	-4.990340e-01
2.664588000000000e-09	1.417067e-01	-5.003968e-01
2.664764000000000e-09	1.417067e-01	-5.044866e-01
2.665116000000000e-09	1.417067e-01	-5.192422e-01
2.665820000000000e-09	1.417067e-01	-5.669380e-01
2.666400000000000e-09	1.417067e-01	-6.195887e-01
2.666822400000000e-09	1.417068e-01	-6.661489e-01
2.667385600000000e-09	1.417068e-01	-7.219940e-01
2.668512000000000e-09	1.417068e-01	-8.123892e-01
2.670764800000000e-09	1.417068e-01	-9.386508e-01
2.672500000000000e-09	1.417068e-01	-9.995695e-01
2.672590000000000e-09	1.417068e-01	-1.001410e+00
2.672770000000000e-09	1.417068e-01	-1.006620e+00
2.673130000000000e-09	1.417068e-01	-1.021942e+00
2.673400000000000e-09	1.417068e-01	-1.036837e+00
2.673470000000000e-09	1.417068e-01	-1.038450e+00
2.673500000000000e-09	1.417068e-01	-1.037934e+00
2.674084000000000e-09	1.417068e-01	-1.011688e+00
2.674668000000000e-09	1.417069e-01	-9.863046e-01
2.675252000000000e-09	1.417069e-01	-9.617840e-01
2.675836000000001e-09	1.417069e-01	-9.381261e-01
2.676420000000001e-09	1.417069e-01	-9.153309e-01
2.677004000000001e-09	1.417069e-01	-8.933983e-01
2.677588000000001e-09	1.417069e-01	-8.723284e-01
2.681684000000003e-09	1.417070e-01	-7.332990e-01
2.683400000000000e-09	1.417070e-01	-6.807597e-01
2.683430000000000e-09	1.417070e-01	-6.805695e-01
2.683500000000000e-09	1.417070e-01	-6.826056e-01
2.683645142857143e-09	1.417070e-01	-6.913412e-01
2.683790285714286e-09	1.417070e-01	-6.991710e-01
2.683935428571429e-09	1.417070e-01	-7.060949e-01
2.684080571428572e-09	1.417070e-01	-7.121128e-01
2.684225714285715e-09	1.417070e-01	-7.172248e-01
2.684370857142858e-09	1.417070e-01	-7.214309e-01
2.684516000000001e-09	1.417070e-01	-7.247311e-01
2.685540000000001e-09	1.417070e-01	-7.343463e-01
2.686300000000000e-09	1.417070e-01	-7.271995e-01
2.687400000000000e-09	1.417070e-01	-6.953605e-01
2.687664000000000e-09	1.417070e-01	-6.891347e-01
2.688016000000000e-09	1.417070e-01	-6.836531e-01
2.688720000000000e-09	1.417071e-01	-6.825108e-01
2.690128000000000e-09	1.417071e-01	-7.149609e-01
2.692600000000000e-09	1.417071e-01	-8.269026e-01
2.692870000000000e-09	1.417071e-01	-8.401107e-01
2.693230000000000e-09	1.417071e-01	-8.461403e-01
2.693500000000000e-09	1.417071e-01	-8.440072e-01
2.693716000000000e-09	1.417072e-01	-8.380464e-01
2.694004000000000e-09	1.417072e-01	-8.338912e-01
2.694580000000000e-09	1.417072e-01	-8.388695e-01
2.695732000000001e-09	1.417072e-01	-8.799987e-01
2.696300000000000e-09	1.417072e-01	-9.136801e-01
2.697070000000000e-09	1.417072e-01	-9.709120e-01
2.697400000000000e-09	1.417072e-01	-9.931611e-01
2.698016000000000e-09	1.417072e-01	-1.025892e+00
2.698720000000000e-09	1.417072e-01	-1.050698e+00
2.700128000000001e-09	1.417073e-01	-1.064546e+00
2.702600000000000e-09	1.417073e-01	-1.032267e+00
2.704571200000001e-09	1.417073e-01	-9.518911e-01
2.706824000000001e-09	1.417074e-01	-8.710517e-01
2.711329600000003e-09	1.417075e-01	-7.310410e-01
2.715100000000000e-09	1.417076e-01	-6.289138e-01
2.716001120000001e-09	1.417076e-01	-6.159438e-01
2.717803360000001e-09	1.417076e-01	-6.059721e-01
2.721407840000002e-09	1.417077e-01	-6.393788e-01
2.725100000000000e-09	1.417078e-01	-7.217959e-01
2.725776585626195e-09	1.417078e-01	-7.418951e-01
2.727129756878585e-09	1.417079e-01	-7.720610e-01
2.729836099383365e-09	1.417079e-01	-7.886420e-01
2.735100000000000e-09	1.417081e-01	-7.439762e-01
2.736723805502868e-09	1.417081e-01	-7.017761e-01
2.738888879506692e-09	1.417082e-01	-6.513344e-01
2.743219027514340e-09	1.417083e-01	-5.677155e-01
2.751879323529637e-09	1.417086e-01	-4.494313e-01
2.769199915560230e-09	1.417091e-01	-3.089514e-01
2.786023080553644e-09	1.417097e-01	-2.427498e-01
2.810038255035886e-09	1.417107e-01	-2.075591e-01
2.836719674889118e-09	1.417120e-01	-1.926756e-01
2.883081130936034e-09	1.417145e-01	-1.816411e-01
2.925090213022463e-09	1.417173e-01	-1.742441e-01
2.976237779944212e-09	1.417212e-01	-1.659242e-01
3.031316943699479e-09	1.417263e-01	-1.572078e-01
3.094112865864891e-09	1.417332e-01	-1.476257e-01
3.158876122784147e-09	1.417419e-01	-1.381403e-01
3.233307923513019e-09	1.417548e-01	-1.277336e-01
3.315032578390952e-09	1.417744e-01	-1.168979e-01
3.411035920695211e-09	1.418122e-01	-1.049341e-01
3.520765621446129e-09	1.418890e-01	-9.222490e-02
3.651879103288836e-09	1.420377e-01	-7.831761e-02
3.807081922218186e-09	1.422872e-01	-6.353184e-02
3.998145089110766e-09	1.427097e-01	-4.762863e-02
4.237169733201970e-09	1.435039e-01	-3.052547e-02
4.412393212325617e-09	1.478968e-01	-1.973407e-02
4.516281313331669e-09	1.620923e-01	-1.416297e-02
4.618416886169332e-09	1.971511e-01	-9.268803e-03
4.727902002842561e-09	2.599622e-01	-4.568935e-03
4.885121752300550e-09	3.752427e-01	1.413652e-03
5.012073178907775e-09	4.658498e-01	5.658243e-03
5.124241772116931e-09	5.140871e-01	8.907391e-03
5.256203168950414e-09	5.081915e-01	1.220699e-02
5.397207702824422e-09	4.408981e-01	1.525527e-02
5.483289903470377e-09	3.770711e-01	1.685666e-02
5.576322385895496e-09	3.021741e-01	1.833953e-02
5.687670727925102e-09	2.246449e-01	1.986697e-02
5.787829183144920e-09	1.777575e-01	2.102213e-02
5.897041852757928e-09	1.531468e-01	2.206935e-02
5.970254740842422e-09	1.475826e-01	2.264942e-02
6.052977114657338e-09	1.459787e-01	2.317992e-02
6.144316613570599e-09	1.451176e-01	2.361716e-02
6.326995611397121e-09	1.441720e-01	2.411186e-02
6.599538117748779e-09	1.432980e-01	2.414515e-02
7.038552095388890e-09	1.424103e-01	2.308699e-02
7.379995201316855e-09	1.420004e-01	2.159529e-02
7.779954009892160e-09	1.417910e-01	1.937090e-02
8.100598184847497e-09	1.417400e-01	1.747342e-02
8.377453791154470e-09	1.417269e-01	1.585602e-02
8.672239637373225e-09	1.417188e-01	1.424578e-02
9.021281040546822e-09	1.417141e-01	1.254598e-02
9.427693377655284e-09	1.417106e-01	1.086954e-02
9.831784151644822e-09	1.417087e-01	9.525510e-03
1.018808559708487e-08	1.417077e-01	8.632694e-03
1.068500171376284e-08	1.417070e-01	7.752988e-03
1.114258984239877e-08	1.417067e-01	7.246711e-03
1.193377826091775e-08	1.417064e-01	6.800616e-03
1.270802532530769e-08	1.417062e-01	6.601289e-03
1.354042293452598e-08	1.417062e-01	6.478790e-03
1.433110314890811e-08	1.417062e-01	6.310821e-03
1.533110314890811e-08	1.417062e-01	5.969894e-03
1.633110314890811e-08	1.417062e-01	5.512043e-03
1.733110314890811e-08	1.417062e-01	4.983014e-03
1.833110314890811e-08	1.417062e-01	4.437057e-03
1.933110314890811e-08	1.417062e-01	3.910413e-03
2.033110314890811e-08	1.417062e-01	3.420208e-03
2.133110314890810e-08	1.417063e-01	2.970919e-03
2.233110314890810e-08	1.417063e-01	2.561225e-03
2.333110314890810e-08	1.417063e-01	2.188453e-03
2.433110314890810e-08	1.417063e-01	1.850457e-03
2.533110314890810e-08	1.417063e-01	1.545869e-03
2.633110314890810e-08	1.417063e-01	1.273709e-03
2.733110314890810e-08	1.417064e-01	1.032952e-03
2.833110314890810e-08	1.417064e-01	8.222852e-04
2.933110314890810e-08	1.417064e-01	6.400567e-04
3.033110314890810e-08	1.417064e-01	4.843421e-04
3.133110314890810e-08	1.417064e-01	3.530538e-04
3.233110314890810e-08	1.417064e-01	2.440386e-04
3.333110314890811e-08	1.417064e-01	1.551506e-04
3.433110314890811e-08	1.417064e-01	8.429738e-05
3.533110314890811e-08	1.417064e-01	2.946769e-05
3.633110314890811e-08	1.417065e-01	-1.125069e-05
3.733110314890812e-08	1.417065e-01	-3.965962e-05
3.833110314890812e-08	1.417065e-01	-5.744219e-05
3.933110314890812e-08	1.417065e-01	-6.615715e-05
4.033110314890812e-08	1.417065e-01	-6.723565e-05
4.133110314890813e-08	1.417065e-01	-6.198068e-05
4.233110314890813e-08	1.417065e-01	-5.156840e-05
4.333110314890813e-08	1.417065e-01	-3.705166e-05
4.533110314890813e-08	1.417065e-01	6.698864e-07
4.733110314890814e-08	1.417065e-01	4.501568e-05
4.933110314890814e-08	1.417064e-01	9.138788e-05
5.133110314890815e-08	1.417064e-01	1.365195e-04
5.333110314890815e-08	1.417064e-01	1.782360e-04
5.533110314890816e-08	1.417064e-01	2.152315e-04
5.733110314890816e-08	1.417064e-01	2.468690e-04
5.933110314890817e-08	1.417064e-01	2.730062e-04
6.133110314890817e-08	1.417064e-01	2.938492e-04
6.333110314890816e-08	1.417064e-01	3.098331e-04
6.533110314890815e-08	1.417064e-01	3.215278e-04
6.833110314890814e-08	1.417064e-01	3.324131e-04
7.133110314890812e-08	1.417064e-01	3.372002e-04
7.433110314890811e-08	1.417064e-01	3.378153e-04
7.733110314890810e-08	1.417064e-01	3.358517e-04
8.033110314890808e-08	1.417064e-01	3.325308e-04
8.333110314890807e-08	1.417064e-01	3.287219e-04
8.633110314890806e-08	1.417064e-01	3.249911e-04
8.933110314890805e-08	1.417064e-01	3.216653e-04
9.233110314890803e-08	1.417064e-01	3.188947e-04
9.475967457747945e-08	1.417064e-01	3.171986e-04
9.718824600605087e-08	1.417064e-01	3.157545e-04
9.961681743462229e-08	1.417064e-01	3.145624e-04
1.020453888631937e-07	1.417064e-01	3.136224e-04
1.044739602917651e-07	1.417064e-01	3.129343e-04
1.069025317203365e-07	1.417064e-01	3.124983e-04
1.093311031489080e-07	1.417064e-01	3.123143e-04
1.116168174346222e-07	1.417064e-01	3.121557e-04
1.139025317203365e-07	1.417064e-01	3.120205e-04
1.161882460060508e-07	1.417064e-01	3.119088e-04
1.184739602917651e-07	1.417064e-01	3.118206e-04
1.207596745774793e-07	1.417064e-01	3.117558e-04
1.230453888631936e-07	1.417064e-01	3.117145e-04
1.253311031489079e-07	1.417064e-01	3.116966e-04
